!Mini-Circuits Laboratory
!S-Parameters
!Model: MNA-6A+
!Run / Lot / Date Code: NA / CP041-001-02-52EV / 1501
!Fixture: NA; TB-186+
!!AUTO PORT EXTENSION DONE: PORT<1>=124.27ps; PORT<2>=123.48ps
!Network Analyzer: PNA-X N5242A - 423 4 ports;  Serial number: 71256
!Date: 4/21/2015
!S/N: Unit# 1
!
# Hz  S  dB  R  50
!Frequency    S11 dB        S11 Deg       S21 dB        S21 Deg       S12 dB        S12 Deg       S22 dB        S22 Deg       
10000100      -0.3716917    -7.4816561    -40.2732811   134.5520935   -58.6539993   109.2912979   -0.0490354    -4.1125512    
20000100      -0.9471253    -13.0275297   -36.7005005   142.3831024   -60.0555801   67.9560394    -0.0700551    -8.4100313    
30000100      -1.5713741    -16.1005192   -32.2391281   155.0872955   -63.8928413   10.8561296    -0.0796806    -12.6433401   
40000100      -2.0692670    -17.7084103   -28.4867992   164.2931976   -58.4879684   34.4518089    -0.0872034    -16.8458195   
50000100      -2.4513879    -18.6093292   -24.6335793   173.5798035   -57.0820808   -7.8340068    -0.1070586    -21.1779404   
60000100      -2.7196391    -19.3631001   -21.1577797   179.2648010   -62.0382996   7.0958610     -0.1421665    -25.6015301   
70000100      -2.9021270    -20.0691395   -18.0274296   -175.9752045  -64.7628632   -7.9095879    -0.1840269    -29.9748192   
80000100      -3.0381711    -20.8325291   -15.0936403   -173.3912964  -68.7495422   -46.3733406   -0.2437479    -34.4922905   
90000100      -3.1287580    -21.5957603   -12.4138298   -171.6900024  -71.3429337   -107.9825974  -0.3258715    -39.0158691   
100000100     -3.1813769    -22.5508404   -10.0064096   -170.7505035  -70.4710999   -158.6376038  -0.4290708    -43.5036011   
110000100     -3.2280920    -23.5299492   -7.7263079    -170.7810974  -63.8977089   178.5016022   -0.5619808    -48.0904694   
120000100     -3.2675669    -24.7130909   -5.5951862    -171.5576935  -58.6007500   152.7543945   -0.7142085    -52.6043701   
130000100     -3.2646539    -25.9001999   -3.6383569    -172.9606934  -54.1205482   134.5081024   -0.8959261    -57.1324806   
140000100     -3.2854970    -27.2240295   -1.8041461    -174.7312927  -53.5799904   138.0630035   -1.0962009    -61.5697899   
150000100     -3.2981181    -28.5707893   -0.1101519    -177.0229950  -51.5546188   139.5556030   -1.3343430    -65.9195938   
160000100     -3.2884009    -30.0230198   1.4546310     -179.3688049  -50.0266190   122.8438034   -1.5768360    -70.0125580   
170000100     -3.2840941    -31.5333099   2.9248450     177.9118042   -49.3104210   109.4089966   -1.8428630    -74.0778809   
180000100     -3.2868440    -33.1828194   4.3051529     174.9750061   -48.0890083   106.0234985   -2.1188440    -78.0699463   
190000100     -3.2808101    -34.8216019   5.5945630     171.9329071   -48.0479698   102.0201035   -2.4081991    -81.8899918   
200000100     -3.2902100    -36.5601997   6.8013020     168.6737061   -47.6340599   99.1356506    -2.7176001    -85.5506516   
210000100     -3.2877829    -38.2777100   7.9254060     165.4100037   -47.3402405   96.6279831    -3.0227959    -88.9947662   
220000100     -3.2989910    -40.0843391   8.9793539     161.9924011   -46.3670692   91.1604691    -3.3387091    -92.3990097   
230000100     -3.3082709    -41.9314995   9.9678946     158.5621948   -46.0756798   83.2807465    -3.6507170    -95.5513535   
240000100     -3.3258250    -43.8056793   10.8928804    155.0740967   -45.6552391   81.6203232    -3.9760060    -98.6819000   
250000100     -3.3472660    -45.7302094   11.7784700    151.5142059   -44.9866295   78.3478470    -4.2674799    -101.6471024  
260000100     -3.3755159    -47.8600693   12.6032200    147.9790039   -44.5024681   80.1788788    -4.6030798    -104.4036026  
270000100     -3.4166081    -49.7996597   13.3589497    144.4141998   -44.3852882   74.2548828    -4.9032369    -107.1874008  
280000100     -3.4563789    -51.8612900   14.0866203    140.8722992   -44.7983894   67.5313873    -5.2076840    -109.6576004  
290000100     -3.5136740    -53.9120483   14.7585697    137.3188934   -44.0727196   64.9410629    -5.5066962    -112.2350998  
300000100     -3.5694289    -56.0614395   15.4095802    133.7418976   -44.1535912   63.7848015    -5.8011131    -114.7603989  
310000100     -3.6341939    -58.1059914   16.0107899    130.1968994   -44.1876984   58.4316406    -6.0717740    -117.1427994  
320000100     -3.7202351    -60.1542587   16.5710793    126.6757965   -43.9774399   59.0086403    -6.3496079    -119.5157013  
330000100     -3.7994480    -62.2927284   17.0995903    123.1835022   -43.6564789   54.4833107    -6.6285248    -121.8777008  
340000100     -3.8896890    -64.3576736   17.5964298    119.7350998   -43.8108292   51.9256096    -6.8952780    -124.0703964  
350000100     -3.9904349    -66.4828568   18.0681992    116.3169022   -43.8695793   50.2112312    -7.1404691    -126.4367981  
360000100     -4.1033759    -68.5387268   18.5024700    112.9925003   -43.7195206   51.5582504    -7.4025331    -128.6114960  
370000100     -4.2218332    -70.6412430   18.9147701    109.6109009   -43.7643204   46.5111008    -7.6633558    -130.9199066  
380000100     -4.3389950    -72.7427368   19.3031998    106.3407974   -43.9006805   45.2071609    -7.9431190    -133.0249023  
390000100     -4.4785442    -74.7197800   19.6670799    103.0663986   -43.8985596   43.8338394    -8.1960468    -135.0388031  
400000100     -4.6363988    -76.7778778   19.9980507    99.8183517    -43.8071899   43.8358383    -8.4409180    -137.2292023  
410000100     -4.7835221    -78.7063522   20.3143902    96.6689835    -43.8437119   39.5125809    -8.6748133    -139.2843933  
420000100     -4.9367428    -80.6331863   20.6042500    93.5858231    -44.2116203   37.0297699    -8.9420547    -141.2633057  
430000100     -5.1057701    -82.5817032   20.8771496    90.4825287    -44.1657104   37.6584511    -9.1767378    -143.4667969  
440000100     -5.2717390    -84.3902664   21.1327095    87.5513535    -44.3791313   37.5058594    -9.4329767    -145.4346008  
450000100     -5.4383230    -86.2194366   21.3643208    84.6504822    -44.2583809   36.8626289    -9.6719255    -147.4114075  
460000100     -5.6195331    -87.8747864   21.5863609    81.8405533    -45.0104408   35.5391006    -9.9165487    -149.3845062  
470000100     -5.7894130    -89.6668701   21.7930908    79.0459290    -44.7549210   38.5865517    -10.1591196   -151.4589996  
480000100     -5.9803562    -91.2759018   21.9812107    76.3312912    -44.6661606   35.8808899    -10.4180698   -153.4860992  
490000100     -6.1468611    -92.9625626   22.1611004    73.6817932    -45.0845718   33.3131790    -10.6220398   -155.5872955  
500000100     -6.2603650    -94.5383072   22.3491402    71.2753220    -45.5979500   31.9614296    -10.9000301   -158.4900055  
510000100     -6.5228448    -96.6101837   22.5337200    68.4147873    -45.5517502   37.9584084    -11.3617201   -159.2899933  
520000100     -6.7327709    -98.0054626   22.6596203    65.9143219    -45.6420288   34.6025085    -11.5688801   -160.8128052  
530000100     -6.9242549    -99.3450089   22.7910500    63.5052605    -45.3640709   34.9670906    -11.8166103   -162.5823975  
540000100     -7.1186948    -100.7731018  22.9158993    61.1482391    -45.9369011   36.3316307    -12.0693502   -164.3085938  
550000100     -7.3076668    -102.1628036  23.0331001    58.8409500    -45.6732483   36.0343285    -12.3490496   -165.9620972  
560000100     -7.5007472    -103.4331970  23.1511192    56.5722504    -45.8286591   31.9859600    -12.5995302   -167.4617004  
570000100     -7.7003121    -104.6897964  23.2576294    54.3835793    -45.9763985   36.3757095    -12.8625202   -169.1145935  
580000100     -7.8797369    -106.0017014  23.3533096    52.1836891    -45.6412201   36.8772392    -13.0924196   -170.9976044  
590000100     -8.0713425    -107.3124008  23.4475098    50.0893517    -46.1705093   32.0128288    -13.3564396   -172.5175934  
600000100     -8.2361870    -108.4637985  23.5452003    48.0294304    -45.8875999   34.3480301    -13.5895004   -174.2290039  
610000100     -8.4134455    -109.6919022  23.6334400    46.0241699    -45.8579712   40.7242393    -13.8876896   -176.0773010  
620000100     -8.5896883    -110.8591995  23.7185993    44.0276184    -46.7483711   36.1835594    -14.1655397   -177.7297058  
630000100     -8.7549105    -112.1003036  23.7949009    42.0406990    -46.0876999   37.0105286    -14.4977999   -179.1862030  
640000100     -8.9345446    -113.2901993  23.8644104    40.1480789    -46.2750587   36.2653885    -14.7633600   179.4335022   
650000100     -9.1251535    -114.4959030  23.9304504    38.2468109    -46.6506119   39.8560600    -15.0561104   177.5231018   
660000100     -9.3176594    -115.7677994  23.9998608    36.3527985    -46.2397804   44.2342491    -15.3688498   176.4019928   
670000100     -9.4999123    -116.7303009  24.0548801    34.5442810    -46.4873886   43.7202988    -15.6472301   175.1770935   
680000100     -9.6575136    -117.7657013  24.1179295    32.8431206    -46.3545113   44.3452301    -15.9040699   173.5261993   
690000100     -9.8233080    -119.0185013  24.1834602    31.0310192    -46.1086006   42.8977203    -16.2911491   171.8621979   
700000100     -10.0298100   -120.0569992  24.2265892    29.2070103    -45.9540482   39.7221184    -16.6040497   171.2731018   
710000100     -10.2024403   -121.0371017  24.2737904    27.5164299    -46.2257195   41.9926491    -16.8577003   170.1654053   
720000100     -10.3856201   -121.9711990  24.3126793    25.8651009    -45.9111900   43.5189590    -17.0884895   168.7751007   
730000100     -10.5495701   -122.9135971  24.3570499    24.2701893    -45.7234612   45.5978584    -17.3764191   167.1732025   
740000100     -10.6998997   -123.8329010  24.3946991    22.6614399    -45.9705887   41.0269814    -17.6047096   165.7552032   
750000100     -10.8737497   -124.6759033  24.4329605    21.1654396    -45.9794083   44.4423790    -17.9267502   164.1405029   
760000100     -11.0027905   -125.4888992  24.4746399    19.6796799    -46.3504410   46.7264519    -18.2052803   162.1053009   
770000100     -11.1056404   -126.7239990  24.5313091    18.2308006    -46.1821289   45.4021988    -18.5683594   159.1838074   
780000100     -11.2843504   -128.3587036  24.6002598    16.5079498    -46.2562790   53.9093819    -19.5405693   158.1416016   
790000100     -11.5503597   -129.0325012  24.6042099    14.8519201    -45.5554695   50.8230591    -19.7789707   160.3728027   
800000100     -11.6941700   -129.7241974  24.6254292    13.4059095    -45.3697090   49.3317604    -19.8618908   159.3600006   
810000100     -11.8739100   -130.5350952  24.6500206    11.9748802    -45.2587204   48.0237694    -20.1224594   157.7413940   
820000100     -12.0343504   -131.3025970  24.6758900    10.5357800    -45.5795708   49.2549782    -20.3934898   156.3825073   
830000100     -12.2404604   -132.2109070  24.6918297    9.1425343     -45.4499512   50.3244400    -20.7276402   154.1757965   
840000100     -12.3756199   -132.2957001  24.7113895    7.9153461     -45.6942215   51.7226791    -21.2371998   153.3126068   
850000100     -12.4860601   -133.2014008  24.7420406    6.5354352     -45.4288216   53.5935898    -21.6413002   152.5603027   
860000100     -12.5797100   -133.8227997  24.7716999    5.2496562     -45.1652908   51.5518684    -21.9404907   151.4546967   
870000100     -12.6928997   -134.7138062  24.7974396    3.8882170     -45.3678284   54.7734604    -22.2603302   150.6219940   
880000100     -12.8353596   -135.2333984  24.8241405    2.6485610     -45.2272911   51.4459305    -22.7130394   148.2460938   
890000100     -12.9309101   -136.2196045  24.8657207    1.3634000     -45.2505913   51.7241211    -23.3316402   145.5032959   
900000100     -13.0944901   -137.0599976  24.8840103    -0.0040293    -44.9700394   54.5225716    -23.9696693   147.5420990   
910000100     -13.2183304   -137.9860992  24.9036293    -1.3280650    -44.9862518   53.0799103    -24.2074203   146.9210968   
920000100     -13.3389702   -138.8128967  24.9238491    -2.6124139    -44.5727997   53.6903000    -24.5496407   146.3376007   
930000100     -13.4549503   -139.6620026  24.9438992    -3.8424840    -44.7895584   52.4891891    -24.9352703   144.8928070   
940000100     -13.5777302   -140.3973999  24.9597206    -5.1029062    -44.6306000   51.4356995    -25.3883400   143.4226990   
950000100     -13.7163401   -141.0879059  24.9754601    -6.3125710    -44.5883789   53.9630699    -25.8856392   142.2355957   
960000100     -13.8178701   -141.7212067  24.9955997    -7.4948869    -44.6254997   56.5714493    -26.4137897   141.5122986   
970000100     -13.9560003   -142.3560944  25.0106792    -8.6975069    -44.1825905   54.6150589    -27.0324993   139.9111023   
980000100     -14.0536098   -142.9185028  25.0297699    -9.8442869    -44.3849297   54.4137383    -27.6292801   138.2601929   
990000100     -14.1507301   -143.6089020  25.0485592    -11.0057402   -44.5075111   54.8469086    -28.2731991   137.4508972   
1000000100    -14.2175999   -144.4320984  25.0757504    -12.1793804   -44.2649193   55.7423210    -28.7731209   137.4062958   
1025000000    -14.4765596   -146.5615997  25.1126404    -15.0785904   -43.9360199   56.8788605    -29.9487591   131.0950012   
1050000000    -14.6799002   -148.8542938  25.1750298    -18.0851002   -43.7407608   57.8350487    -33.9219818   123.2701035   
1075000000    -15.0031500   -150.6515045  25.1877804    -20.9181900   -43.5374718   58.1178284    -35.6366081   124.9773026   
1100000000    -15.2108002   -152.4553070  25.2131691    -23.6481609   -43.6499405   57.8994408    -38.3945007   116.6390991   
1125000000    -15.3994598   -154.3139038  25.2450905    -26.3455296   -42.9508705   58.3543816    -42.0475998   95.2983932    
1150000000    -15.6705799   -156.4093933  25.2735691    -29.0482407   -42.8633499   56.3966904    -43.6673012   33.4568596    
1175000000    -15.9201002   -158.2449036  25.2895298    -31.6931896   -42.8973999   57.3669205    -41.5868607   -13.3844299   
1200000000    -16.0868702   -159.9197998  25.3089409    -34.3292198   -42.7578316   59.2667084    -38.5215492   -25.2984104   
1225000000    -16.3556900   -161.7593994  25.3248806    -36.9003792   -42.7402000   55.7246704    -34.7289391   -29.9089603   
1250000000    -16.4880695   -163.6737976  25.3459797    -39.4769707   -42.2180786   58.6508217    -33.2111511   -41.4006882   
1275000000    -16.6359406   -165.5435944  25.3574905    -41.9496994   -42.2445107   58.8042488    -31.4227200   -44.3698997   
1300000000    -16.8429108   -166.9461975  25.3668003    -44.4046783   -42.0201912   60.2454605    -30.1574497   -47.5025406   
1325000000    -16.9579201   -168.8347015  25.3893509    -46.8912506   -41.7883911   59.2832603    -29.1716995   -48.6196518   
1350000000    -17.0699291   -171.0299988  25.4146004    -49.3967285   -41.5220299   58.8990097    -27.4633598   -46.9274902   
1375000000    -17.2022896   -173.5307007  25.3984909    -52.0034599   -41.6794014   59.7604790    -26.7122707   -56.9725304   
1400000000    -17.4426193   -175.0247040  25.3969498    -54.3204994   -41.4898300   58.5187492    -26.4493408   -57.4779701   
1425000000    -17.5920105   -177.1228943  25.3992596    -56.6774902   -41.1231995   58.3797607    -25.9086895   -57.0329208   
1450000000    -17.6441593   -178.8332062  25.4303207    -59.0649300   -41.2050896   57.4932213    -24.5379505   -54.6322289   
1475000000    -17.8795109   178.4362946   25.3915501    -61.5974693   -40.9170799   59.0657082    -24.4000492   -61.0280113   
1500000000    -18.0915508   176.5738068   25.3795109    -63.8587112   -40.8885384   58.4219017    -23.8628407   -61.6712303   
1525000000    -18.3495903   174.7559967   25.3583107    -66.0737915   -40.9798088   56.9871292    -23.3335800   -60.7638016   
1550000000    -18.8519993   173.9228973   25.3348103    -68.1231079   -40.7201805   57.6262207    -22.5916595   -58.3540001   
1575000000    -17.9947891   -177.9147034  25.5261097    -70.0753708   -41.5728989   65.5665665    -20.1429901   -71.7296066   
1600000000    -17.6672096   171.1717072   25.4419098    -73.3745575   -40.2776108   62.4757004    -21.8449001   -76.4309235   
1625000000    -17.7872505   168.5529938   25.4108105    -75.6883926   -40.1150208   62.6907387    -21.8216000   -75.9437637   
1650000000    -17.8904591   165.7449036   25.3803596    -78.0478973   -40.1900902   62.3823204    -21.7798195   -76.7714386   
1675000000    -17.9997997   162.4920959   25.3528709    -80.3740768   -39.8269081   60.8439484    -21.7284107   -76.5355530   
1700000000    -18.0745697   160.0498962   25.3244400    -82.6056519   -39.8049316   59.0832481    -21.4995804   -76.1452103   
1725000000    -18.1988907   157.9174042   25.2976704    -84.8815613   -39.7613106   59.9853516    -21.1498394   -77.2257080   
1750000000    -18.2714005   155.3645020   25.2656193    -87.1144333   -39.5496483   59.9550209    -21.0869198   -78.1503830   
1775000000    -18.0426197   152.4490967   25.2379799    -89.5338135   -39.1872292   61.0108299    -21.1272202   -80.3645630   
1800000000    -18.2891808   149.8363037   25.1870193    -91.6253662   -39.3049698   58.9976807    -20.9836197   -78.4653168   
1825000000    -18.5619202   147.0901031   25.1549797    -93.7108307   -38.9435196   59.5374908    -20.7314491   -77.3039169   
1850000000    -18.7383194   147.5847931   25.1670208    -95.7337723   -39.2461891   57.8899803    -19.8723507   -78.6931763   
1875000000    -18.3439808   144.7714996   25.1330891    -98.2942886   -39.0887985   59.0820885    -19.9783497   -80.1327133   
1900000000    -18.2538605   141.9716034   25.0591602    -100.6328964  -38.9785690   57.5632019    -20.1074600   -83.3214569   
1925000000    -18.2316399   138.5305939   25.0115891    -102.7008972  -38.7256317   58.1215591    -20.1593895   -82.5887527   
1950000000    -18.2479000   136.0789948   24.9708500    -104.7751007  -38.5043983   56.6030197    -20.0090904   -81.6839218   
1975000000    -18.3672295   134.3986053   24.9462891    -106.9187012  -38.4936905   55.9297295    -19.4836998   -80.9105682   
2000000000    -18.1378307   131.1746063   24.8878994    -109.3160019  -38.4977493   57.2262192    -19.1592293   -85.6256409   
2025000000    -18.1938896   129.5258026   24.8353500    -111.4332962  -38.4492798   59.0837517    -19.4579506   -87.2561493   
2050000000    -18.0573597   126.4401016   24.7563400    -113.5597000  -38.3005409   57.9018517    -19.6863308   -87.2582397   
2075000000    -18.1833305   124.4297028   24.7169704    -115.5330963  -38.2194099   56.2265091    -19.4058990   -86.4267807   
2100000000    -17.6745396   122.0874023   24.6417198    -117.9569016  -37.7900009   56.8037796    -19.7747803   -89.6878815   
2125000000    -17.8580093   119.7601013   24.5864792    -119.7664032  -37.9061508   56.2171288    -19.5398293   -87.4613266   
2150000000    -18.0449505   118.2323990   24.5579491    -121.7760010  -37.8639183   55.0998497    -19.0857201   -87.5336609   
2175000000    -17.6496391   115.3944016   24.4889698    -123.9757996  -37.7739182   56.6762886    -19.2997208   -88.5962219   
2200000000    -17.5495090   112.5746994   24.4121609    -126.0038986  -37.4901505   56.7146683    -19.2713394   -87.9368515   
2225000000    -17.6161308   111.9119034   24.3744602    -128.2232056  -37.7360802   54.5212593    -19.1925602   -91.0012283   
2250000000    -17.4709301   107.8311005   24.2996101    -130.0550995  -37.3508301   53.3818893    -19.0702095   -88.0732269   
2275000000    -17.3229504   107.4611969   24.2350292    -132.3854980  -37.4494209   54.0979996    -19.0062008   -91.1964111   
2300000000    -17.4229393   106.1809006   24.1805592    -134.4272003  -37.3278809   51.8770790    -18.7225800   -92.1726303   
